
T4830 000:495 SEGGER J-Link V4.90 Log File (0001ms, 0274ms total)
T4830 000:495 DLL Compiled: Jul 28 2014 10:35:20 (0001ms, 0274ms total)
T4830 000:495 Logging started @ 2015-08-31 17:28 (0001ms, 0274ms total)
T4830 000:496 JLINK_SetWarnOutHandler(...) (0000ms, 0274ms total)
T4830 000:496 JLINK_OpenEx(...)
Firmware: J-Link ARM-OB STM32 compiled Aug 22 2012 19:52:04
Hardware: V7.00
S/N: 20090928
Feature(s): RDI,FlashDL,FlashBP,JFlash,GDBFull  returns O.K. (0272ms, 0546ms total)
T4830 000:768 JLINK_SetErrorOutHandler(...) (0000ms, 0546ms total)
T4830 000:768 JLINK_ExecCommand("ProjectFile = "C:\Users\Lenovo\Desktop\ËÄÖá 08-17×îÖÕ°æ±¾\JLinkSettings.ini"", ...)  returns 0x00 (0001ms, 0547ms total)
T4830 000:780 JLINK_ExecCommand("Device = STM32F103ZE", ...)Device "STM32F103ZE" selected (512 KB flash, 64 KB RAM).  returns 0x00 (0017ms, 0564ms total)
T4830 000:797 JLINK_ExecCommand("DisableConnectionTimeout", ...)  returns 0x01 (0000ms, 0564ms total)
T4830 000:797 JLINK_TIF_Select(JLINKARM_TIF_SWD)  returns 0x00 (0003ms, 0567ms total)
T4830 000:800 JLINK_SetSpeed(10000) (0001ms, 0568ms total)
T4830 000:801 JLINK_GetHardwareVersion()  returns 0x11170 (0000ms, 0568ms total)
T4830 000:801 JLINK_GetDLLVersion()  returns 49000 (0000ms, 0568ms total)
T4830 000:801 JLINK_GetFirmwareString(...) (0000ms, 0568ms total)
T4830 000:819 JLINK_GetDLLVersion()  returns 49000 (0000ms, 0568ms total)
T4830 000:819 JLINK_GetCompileDateTime() (0000ms, 0568ms total)
T4830 000:825 JLINK_GetFirmwareString(...) (0000ms, 0568ms total)
T4830 000:830 JLINK_GetHardwareVersion()  returns 0x11170 (0000ms, 0568ms total)
T4830 000:850 JLINK_GetId() >0x108 TIF>Found SWD-DP with ID 0x1BA01477 >0x0D TIF> >0x28 TIF> >0x0D TIF> >0x28 TIF> >0x0D TIF> >0x21 TIF> >0x0D TIF> >0x28 TIF> >0x0D TIF> >0x28 TIF> >0x0D TIF> >0x28 TIF> >0x0D TIF> >0x21 TIF> >0x0D TIF> >0x21 TIF> >0x0D TIF> >0x28 TIF> >0x0D TIF> >0x21 TIF> >0x0D TIF> >0x21 TIF> >0x0D TIF> >0x28 TIF> >0x0D TIF> >0x28 TIF> >0x108 TIF>Found SWD-DP with ID 0x1BA01477 >0x0D TIF> >0x21 TIF> >0x0D TIF> >0x28 TIF> >0x0D TIF> >0x28 TIF> >0x0D TIF> >0x21 TIF> >0x0D TIF> >0x28 TIF>
 >0x0D TIF> >0x21 TIF> >0x0D TIF> >0x21 TIF> >0x0D TIF> >0x21 TIF> >0x0D TIF> >0x21 TIF> >0x0D TIF> >0x28 TIF> >0x0D TIF> >0x28 TIF> >0x0D TIF> >0x21 TIF> >0x0D TIF> >0x28 TIF> >0x0D TIF> >0x28 TIF> >0x0D TIF> >0x28 TIF> >0x0D TIF> >0x21 TIF> >0x0D TIF> >0x21 TIF> >0x0D TIF> >0x28 TIF> >0x0D TIF> >0x21 TIF> >0x0D TIF> >0x21 TIF>Found Cortex-M3 r1p1, Little endian. -- CPU_WriteMem(4 bytes @ 0xE0002000) -- CPU_ReadMem(4 bytes @ 0xE000EDF0) -- CPU_WriteMem(4 bytes @ 0xE000EDF0)
 -- CPU_ReadMem(4 bytes @ 0xE0002000)FPUnit: 6 code (BP) slots and 2 literal slots -- CPU_ReadMem(4 bytes @ 0xE000EDFC) -- CPU_WriteMem(4 bytes @ 0xE000EDFC) -- CPU_ReadMem(4 bytes @ 0xE0001000) -- CPU_WriteMem(4 bytes @ 0xE0001000) -- CPU_ReadMem(4 bytes @ 0xE00FF010)TPIU fitted. -- CPU_ReadMem(4 bytes @ 0xE00FF014)ETM fitted. -- CPU_ReadMem(4 bytes @ 0xE00FF018) >0x0D TIF> >0x21 TIF>  returns 0x1BA01477 (0120ms, 0688ms total)
T4830 000:970 JLINK_GetDeviceFamily()  returns 3 (0000ms, 0688ms total)
T4830 000:974 JLINK_ReadMem (0xE00FFFF0, 0x0010 Bytes, ...) -- CPU is running -- CPU_ReadMem(16 bytes @ 0xE00FFFF0) - Data: 0D 00 00 00 10 00 00 00 05 00 00 00 B1 00 00 00  returns 0x00 (0001ms, 0689ms total)
T4830 000:975 JLINK_ReadMem (0xE00FFFD0, 0x0020 Bytes, ...) -- CPU is running -- CPU_ReadMem(32 bytes @ 0xE00FFFD0) - Data: 00 00 00 00 00 00 00 00 00 00 00 00 00 00 00 00 ...  returns 0x00 (0001ms, 0690ms total)
T4830 000:976 JLINK_ReadMem (0xE00FF000, 0x0018 Bytes, ...) -- CPU is running -- CPU_ReadMem(24 bytes @ 0xE00FF000) - Data: 03 F0 F0 FF 03 20 F0 FF 03 30 F0 FF 03 10 F0 FF ...  returns 0x00 (0001ms, 0691ms total)
T4830 000:977 JLINK_ReadMemU32(0xE000ED00, 0x0001 Items, ...) -- CPU is running -- CPU_ReadMem(4 bytes @ 0xE000ED00) - Data: 31 C2 1F 41  returns 0x01 (0001ms, 0692ms total)
T4830 000:978 JLINK_SetResetType(JLINKARM_RESET_TYPE_NORMAL)  returns JLINKARM_RESET_TYPE_NORMAL (0000ms, 0692ms total)
T4830 000:978 JLINK_Reset() -- CPU is running -- CPU_WriteMem(4 bytes @ 0xE000EDF0) -- CPU is running -- CPU_WriteMem(4 bytes @ 0xE000EDFC) >0x35 TIF> -- CPU is running -- CPU_WriteMem(4 bytes @ 0xE000ED0C) -- CPU is running -- CPU_ReadMem(4 bytes @ 0xE000EDF0) -- CPU is running -- CPU_ReadMem(4 bytes @ 0xE000EDF0) -- CPU is running -- CPU_WriteMem(4 bytes @ 0xE000EDF0) -- CPU is running -- CPU_WriteMem(4 bytes @ 0xE000EDFC) -- CPU is running -- CPU_ReadMem(4 bytes @ 0xE000EDF0)
 -- CPU_WriteMem(4 bytes @ 0xE0002000) -- CPU_ReadMem(4 bytes @ 0xE000EDFC) -- CPU_ReadMem(4 bytes @ 0xE0001000) (0023ms, 0715ms total)
T4830 001:001 JLINK_Halt()  returns 0x00 (0002ms, 0717ms total)
T4830 001:003 JLINK_IsHalted()  returns TRUE (0000ms, 0717ms total)
T4830 001:003 JLINK_ReadMemU32(0xE000EDF0, 0x0001 Items, ...) -- CPU_ReadMem(4 bytes @ 0xE000EDF0) - Data: 03 00 03 00  returns 0x01 (0000ms, 0717ms total)
T4830 001:003 JLINK_WriteU32(0xE000EDF0, 0xA05F0003) -- CPU_WriteMem(4 bytes @ 0xE000EDF0)  returns 0x00 (0001ms, 0718ms total)
T4830 001:004 JLINK_WriteU32(0xE000EDFC, 0x01000000) -- CPU_WriteMem(4 bytes @ 0xE000EDFC)  returns 0x00 (0001ms, 0719ms total)
T4830 001:026 JLINK_GetHWStatus(...)  returns 0x00 (0002ms, 0721ms total)
T4830 001:048 JLINK_GetNumBPUnits(Type = 0xFFFFFF00)  returns 0x06 (0000ms, 0721ms total)
T4830 001:048 JLINK_GetNumBPUnits(Type = 0xF0)  returns 0x2000 (0001ms, 0722ms total)
T4830 001:049 JLINK_GetNumWPUnits()  returns 0x04 (0000ms, 0722ms total)
T4830 001:062 JLINK_GetSpeed()  returns 0xFA0 (0000ms, 0722ms total)
T4830 001:071 JLINK_ReadMemU32(0xE000E004, 0x0001 Items, ...) -- CPU_ReadMem(4 bytes @ 0xE000E004) - Data: 01 00 00 00  returns 0x01 (0001ms, 0723ms total)
T4830 001:072 JLINK_ReadMemU32(0xE000E004, 0x0001 Items, ...) -- CPU_ReadMem(4 bytes @ 0xE000E004) - Data: 01 00 00 00  returns 0x01 (0001ms, 0724ms total)
T4830 001:073 JLINK_WriteMem(0xE0001000, 0x001C Bytes, ...) - Data: 01 00 00 00 00 00 00 00 00 00 00 00 00 00 00 00 ... -- CPU_WriteMem(28 bytes @ 0xE0001000)  returns 0x1C (0001ms, 0725ms total)
T4830 001:074 JLINK_ReadMem (0xE0001000, 0x001C Bytes, ...) -- CPU_ReadMem(28 bytes @ 0xE0001000) - Data: 01 00 00 40 00 00 00 00 00 00 00 00 00 00 00 00 ...  returns 0x00 (0001ms, 0726ms total)
T4830 001:075 JLINK_Halt()  returns 0x00 (0000ms, 0726ms total)
T4830 001:075 JLINK_IsHalted()  returns TRUE (0000ms, 0726ms total)
T4830 001:080 JLINK_WriteMem(0x20000000, 0x0164 Bytes, ...) - Data: 00 BE 0A E0 0D 78 2D 06 68 40 08 24 40 00 00 D3 ... -- CPU_WriteMem(356 bytes @ 0x20000000)  returns 0x164 (0004ms, 0730ms total)
T4830 001:084 JLINK_WriteReg(R0, 0x08000000)  returns 0x00 (0001ms, 0731ms total)
T4830 001:085 JLINK_WriteReg(R1, 0x007A1200)  returns 0x00 (0000ms, 0731ms total)
T4830 001:085 JLINK_WriteReg(R2, 0x00000001)  returns 0x00 (0000ms, 0731ms total)
T4830 001:085 JLINK_WriteReg(R3, 0x00000000)  returns 0x00 (0000ms, 0731ms total)
T4830 001:085 JLINK_WriteReg(R4, 0x00000000)  returns 0x00 (0000ms, 0731ms total)
T4830 001:085 JLINK_WriteReg(R5, 0x00000000)  returns 0x00 (0000ms, 0731ms total)
T4830 001:085 JLINK_WriteReg(R6, 0x00000000)  returns 0x00 (0000ms, 0731ms total)
T4830 001:085 JLINK_WriteReg(R7, 0x00000000)  returns 0x00 (0000ms, 0731ms total)
T4830 001:085 JLINK_WriteReg(R8, 0x00000000)  returns 0x00 (0000ms, 0731ms total)
T4830 001:085 JLINK_WriteReg(R9, 0x20000160)  returns 0x00 (0000ms, 0731ms total)
T4830 001:085 JLINK_WriteReg(R10, 0x00000000)  returns 0x00 (0000ms, 0731ms total)
T4830 001:085 JLINK_WriteReg(R11, 0x00000000)  returns 0x00 (0000ms, 0731ms total)
T4830 001:085 JLINK_WriteReg(R12, 0x00000000)  returns 0x00 (0000ms, 0731ms total)
T4830 001:085 JLINK_WriteReg(R13 (SP), 0x20000800)  returns 0x00 (0000ms, 0731ms total)
T4830 001:085 JLINK_WriteReg(R14, 0x20000001)  returns 0x00 (0000ms, 0731ms total)
T4830 001:085 JLINK_WriteReg(R15 (PC), 0x20000038)  returns 0x00 (0000ms, 0731ms total)
T4830 001:085 JLINK_WriteReg(XPSR, 0x01000000)  returns 0x00 (0000ms, 0731ms total)
T4830 001:085 JLINK_WriteReg(MSP, 0x20000800)  returns 0x00 (0000ms, 0731ms total)
T4830 001:085 JLINK_WriteReg(PSP, 0x20000800)  returns 0x00 (0000ms, 0731ms total)
T4830 001:085 JLINK_WriteReg(CFBP, 0x00000000)  returns 0x00 (0000ms, 0731ms total)
T4830 001:085 JLINK_SetBPEx(Addr = 0x20000000, Type = 0xFFFFFFF2) -- CPU_ReadMem(2 bytes @ 0x20000000)  returns 0x00000001 (0001ms, 0732ms total)
T4830 001:087 JLINK_Go() -- CPU_WriteMem(2 bytes @ 0x20000000) -- CPU_WriteMem(4 bytes @ 0xE0002008) -- CPU_WriteMem(4 bytes @ 0xE000200C) -- CPU_WriteMem(4 bytes @ 0xE0002010) -- CPU_WriteMem(4 bytes @ 0xE0002014) -- CPU_WriteMem(4 bytes @ 0xE0002018) -- CPU_WriteMem(4 bytes @ 0xE000201C) -- CPU_WriteMem(4 bytes @ 0xE0001004) (0011ms, 0743ms total)
T4830 001:098 JLINK_IsHalted() -- CPU_ReadMem(2 bytes @ 0x20000000)  returns TRUE (0004ms, 0747ms total)
T4830 001:102 JLINK_ReadReg(R15 (PC))  returns 0x20000000 (0000ms, 0743ms total)
T4830 001:102 JLINK_ClrBPEx(BPHandle = 0x00000001)  returns 0x00 (0000ms, 0743ms total)
T4830 001:102 JLINK_ReadReg(R0)  returns 0x00000000 (0000ms, 0743ms total)
T4830 001:103 JLINK_WriteReg(R0, 0x08000000)  returns 0x00 (0000ms, 0743ms total)
T4830 001:103 JLINK_WriteReg(R1, 0x007A1200)  returns 0x00 (0000ms, 0743ms total)
T4830 001:103 JLINK_WriteReg(R2, 0x00000001)  returns 0x00 (0000ms, 0743ms total)
T4830 001:103 JLINK_WriteReg(R3, 0x00000000)  returns 0x00 (0000ms, 0743ms total)
T4830 001:103 JLINK_WriteReg(R4, 0x00000000)  returns 0x00 (0000ms, 0743ms total)
T4830 001:103 JLINK_WriteReg(R5, 0x00000000)  returns 0x00 (0000ms, 0743ms total)
T4830 001:103 JLINK_WriteReg(R6, 0x00000000)  returns 0x00 (0000ms, 0743ms total)
T4830 001:103 JLINK_WriteReg(R7, 0x00000000)  returns 0x00 (0000ms, 0743ms total)
T4830 001:103 JLINK_WriteReg(R8, 0x00000000)  returns 0x00 (0000ms, 0743ms total)
T4830 001:103 JLINK_WriteReg(R9, 0x20000160)  returns 0x00 (0000ms, 0743ms total)
T4830 001:103 JLINK_WriteReg(R10, 0x00000000)  returns 0x00 (0000ms, 0743ms total)
T4830 001:103 JLINK_WriteReg(R11, 0x00000000)  returns 0x00 (0000ms, 0743ms total)
T4830 001:103 JLINK_WriteReg(R12, 0x00000000)  returns 0x00 (0000ms, 0743ms total)
T4830 001:103 JLINK_WriteReg(R13 (SP), 0x20000800)  returns 0x00 (0000ms, 0743ms total)
T4830 001:103 JLINK_WriteReg(R14, 0x20000001)  returns 0x00 (0000ms, 0743ms total)
T4830 001:103 JLINK_WriteReg(R15 (PC), 0x2000007C)  returns 0x00 (0000ms, 0743ms total)
T4830 001:103 JLINK_WriteReg(XPSR, 0x01000000)  returns 0x00 (0000ms, 0743ms total)
T4830 001:103 JLINK_WriteReg(MSP, 0x20000800)  returns 0x00 (0001ms, 0744ms total)
T4830 001:104 JLINK_WriteReg(PSP, 0x20000800)  returns 0x00 (0000ms, 0744ms total)
T4830 001:104 JLINK_WriteReg(CFBP, 0x00000000)  returns 0x00 (0000ms, 0744ms total)
T4830 001:104 JLINK_SetBPEx(Addr = 0x20000000, Type = 0xFFFFFFF2)  returns 0x00000002 (0000ms, 0744ms total)
T4830 001:104 JLINK_Go() (0002ms, 0746ms total)
T4830 001:106 JLINK_IsHalted()  returns FALSE (0001ms, 0747ms total)
T4830 001:270 JLINK_IsHalted() -- CPU_ReadMem(2 bytes @ 0x20000000)  returns TRUE (0005ms, 0751ms total)
T4830 001:275 JLINK_ReadReg(R15 (PC))  returns 0x20000000 (0000ms, 0746ms total)
T4830 001:275 JLINK_ClrBPEx(BPHandle = 0x00000002)  returns 0x00 (0000ms, 0746ms total)
T4830 001:275 JLINK_ReadReg(R0)  returns 0x00000000 (0000ms, 0746ms total)
T4830 001:325 JLINK_WriteReg(R0, 0x00000001)  returns 0x00 (0000ms, 0746ms total)
T4830 001:325 JLINK_WriteReg(R1, 0x007A1200)  returns 0x00 (0001ms, 0747ms total)
T4830 001:326 JLINK_WriteReg(R2, 0x00000001)  returns 0x00 (0000ms, 0747ms total)
T4830 001:326 JLINK_WriteReg(R3, 0x00000000)  returns 0x00 (0000ms, 0747ms total)
T4830 001:326 JLINK_WriteReg(R4, 0x00000000)  returns 0x00 (0000ms, 0747ms total)
T4830 001:326 JLINK_WriteReg(R5, 0x00000000)  returns 0x00 (0000ms, 0747ms total)
T4830 001:326 JLINK_WriteReg(R6, 0x00000000)  returns 0x00 (0000ms, 0747ms total)
T4830 001:326 JLINK_WriteReg(R7, 0x00000000)  returns 0x00 (0000ms, 0747ms total)
T4830 001:326 JLINK_WriteReg(R8, 0x00000000)  returns 0x00 (0000ms, 0747ms total)
T4830 001:326 JLINK_WriteReg(R9, 0x20000160)  returns 0x00 (0000ms, 0747ms total)
T4830 001:326 JLINK_WriteReg(R10, 0x00000000)  returns 0x00 (0000ms, 0747ms total)
T4830 001:326 JLINK_WriteReg(R11, 0x00000000)  returns 0x00 (0000ms, 0747ms total)
T4830 001:326 JLINK_WriteReg(R12, 0x00000000)  returns 0x00 (0000ms, 0747ms total)
T4830 001:326 JLINK_WriteReg(R13 (SP), 0x20000800)  returns 0x00 (0000ms, 0747ms total)
T4830 001:326 JLINK_WriteReg(R14, 0x20000001)  returns 0x00 (0000ms, 0747ms total)
T4830 001:326 JLINK_WriteReg(R15 (PC), 0x2000006A)  returns 0x00 (0000ms, 0747ms total)
T4830 001:326 JLINK_WriteReg(XPSR, 0x01000000)  returns 0x00 (0000ms, 0747ms total)
T4830 001:326 JLINK_WriteReg(MSP, 0x20000800)  returns 0x00 (0000ms, 0747ms total)
T4830 001:326 JLINK_WriteReg(PSP, 0x20000800)  returns 0x00 (0000ms, 0747ms total)
T4830 001:326 JLINK_WriteReg(CFBP, 0x00000000)  returns 0x00 (0000ms, 0747ms total)
T4830 001:326 JLINK_SetBPEx(Addr = 0x20000000, Type = 0xFFFFFFF2)  returns 0x00000003 (0000ms, 0747ms total)
T4830 001:326 JLINK_Go() (0002ms, 0749ms total)
T4830 001:328 JLINK_IsHalted() -- CPU_ReadMem(2 bytes @ 0x20000000)  returns TRUE (0005ms, 0754ms total)
T4830 001:333 JLINK_ReadReg(R15 (PC))  returns 0x20000000 (0000ms, 0749ms total)
T4830 001:333 JLINK_ClrBPEx(BPHandle = 0x00000003)  returns 0x00 (0000ms, 0749ms total)
T4830 001:333 JLINK_ReadReg(R0)  returns 0x00000000 (0000ms, 0749ms total)
T4830 001:342 JLINK_WriteMem(0x20000000, 0x0164 Bytes, ...) - Data: 00 BE 0A E0 0D 78 2D 06 68 40 08 24 40 00 00 D3 ... -- CPU_WriteMem(356 bytes @ 0x20000000)  returns 0x164 (0004ms, 0753ms total)
T4830 001:346 JLINK_WriteReg(R0, 0x08000000)  returns 0x00 (0000ms, 0753ms total)
T4830 001:346 JLINK_WriteReg(R1, 0x007A1200)  returns 0x00 (0001ms, 0754ms total)
T4830 001:347 JLINK_WriteReg(R2, 0x00000002)  returns 0x00 (0000ms, 0754ms total)
T4830 001:347 JLINK_WriteReg(R3, 0x00000000)  returns 0x00 (0000ms, 0754ms total)
T4830 001:347 JLINK_WriteReg(R4, 0x00000000)  returns 0x00 (0000ms, 0754ms total)
T4830 001:347 JLINK_WriteReg(R5, 0x00000000)  returns 0x00 (0000ms, 0754ms total)
T4830 001:347 JLINK_WriteReg(R6, 0x00000000)  returns 0x00 (0000ms, 0754ms total)
T4830 001:347 JLINK_WriteReg(R7, 0x00000000)  returns 0x00 (0000ms, 0754ms total)
T4830 001:347 JLINK_WriteReg(R8, 0x00000000)  returns 0x00 (0000ms, 0754ms total)
T4830 001:347 JLINK_WriteReg(R9, 0x20000160)  returns 0x00 (0000ms, 0754ms total)
T4830 001:347 JLINK_WriteReg(R10, 0x00000000)  returns 0x00 (0000ms, 0754ms total)
T4830 001:347 JLINK_WriteReg(R11, 0x00000000)  returns 0x00 (0000ms, 0754ms total)
T4830 001:347 JLINK_WriteReg(R12, 0x00000000)  returns 0x00 (0000ms, 0754ms total)
T4830 001:347 JLINK_WriteReg(R13 (SP), 0x20000800)  returns 0x00 (0000ms, 0754ms total)
T4830 001:347 JLINK_WriteReg(R14, 0x20000001)  returns 0x00 (0000ms, 0754ms total)
T4830 001:347 JLINK_WriteReg(R15 (PC), 0x20000038)  returns 0x00 (0000ms, 0754ms total)
T4830 001:347 JLINK_WriteReg(XPSR, 0x01000000)  returns 0x00 (0000ms, 0754ms total)
T4830 001:347 JLINK_WriteReg(MSP, 0x20000800)  returns 0x00 (0000ms, 0754ms total)
T4830 001:347 JLINK_WriteReg(PSP, 0x20000800)  returns 0x00 (0000ms, 0754ms total)
T4830 001:347 JLINK_WriteReg(CFBP, 0x00000000)  returns 0x00 (0000ms, 0754ms total)
T4830 001:347 JLINK_SetBPEx(Addr = 0x20000000, Type = 0xFFFFFFF2) -- CPU_ReadMem(2 bytes @ 0x20000000)  returns 0x00000004 (0001ms, 0755ms total)
T4830 001:348 JLINK_Go() -- CPU_WriteMem(2 bytes @ 0x20000000) (0003ms, 0758ms total)
T4830 001:351 JLINK_IsHalted() -- CPU_ReadMem(2 bytes @ 0x20000000)  returns TRUE (0005ms, 0763ms total)
T4830 001:356 JLINK_ReadReg(R15 (PC))  returns 0x20000000 (0000ms, 0758ms total)
T4830 001:356 JLINK_ClrBPEx(BPHandle = 0x00000004)  returns 0x00 (0000ms, 0758ms total)
T4830 001:356 JLINK_ReadReg(R0)  returns 0x00000000 (0000ms, 0758ms total)
T4830 001:356 JLINK_WriteMem(0x20000164, 0x0400 Bytes, ...) - Data: 18 0B 00 20 A5 53 00 08 AD 53 00 08 AF 53 00 08 ... -- CPU_WriteMem(1024 bytes @ 0x20000164)  returns 0x400 (0013ms, 0771ms total)
T4830 001:369 JLINK_WriteReg(R0, 0x08000000)  returns 0x00 (0000ms, 0771ms total)
T4830 001:369 JLINK_WriteReg(R1, 0x00000400)  returns 0x00 (0000ms, 0771ms total)
T4830 001:369 JLINK_WriteReg(R2, 0x20000164)  returns 0x00 (0000ms, 0771ms total)
T4830 001:369 JLINK_WriteReg(R3, 0x00000000)  returns 0x00 (0000ms, 0771ms total)
T4830 001:369 JLINK_WriteReg(R4, 0x00000000)  returns 0x00 (0000ms, 0771ms total)
T4830 001:369 JLINK_WriteReg(R5, 0x00000000)  returns 0x00 (0000ms, 0771ms total)
T4830 001:369 JLINK_WriteReg(R6, 0x00000000)  returns 0x00 (0000ms, 0771ms total)
T4830 001:369 JLINK_WriteReg(R7, 0x00000000)  returns 0x00 (0000ms, 0771ms total)
T4830 001:369 JLINK_WriteReg(R8, 0x00000000)  returns 0x00 (0000ms, 0771ms total)
T4830 001:369 JLINK_WriteReg(R9, 0x20000160)  returns 0x00 (0000ms, 0771ms total)
T4830 001:369 JLINK_WriteReg(R10, 0x00000000)  returns 0x00 (0000ms, 0771ms total)
T4830 001:369 JLINK_WriteReg(R11, 0x00000000)  returns 0x00 (0000ms, 0771ms total)
T4830 001:369 JLINK_WriteReg(R12, 0x00000000)  returns 0x00 (0000ms, 0771ms total)
T4830 001:369 JLINK_WriteReg(R13 (SP), 0x20000800)  returns 0x00 (0000ms, 0771ms total)
T4830 001:369 JLINK_WriteReg(R14, 0x20000001)  returns 0x00 (0000ms, 0771ms total)
T4830 001:369 JLINK_WriteReg(R15 (PC), 0x200000F4)  returns 0x00 (0000ms, 0771ms total)
T4830 001:369 JLINK_WriteReg(XPSR, 0x01000000)  returns 0x00 (0000ms, 0771ms total)
T4830 001:369 JLINK_WriteReg(MSP, 0x20000800)  returns 0x00 (0000ms, 0771ms total)
T4830 001:369 JLINK_WriteReg(PSP, 0x20000800)  returns 0x00 (0000ms, 0771ms total)
T4830 001:369 JLINK_WriteReg(CFBP, 0x00000000)  returns 0x00 (0000ms, 0771ms total)
T4830 001:369 JLINK_SetBPEx(Addr = 0x20000000, Type = 0xFFFFFFF2)  returns 0x00000005 (0001ms, 0772ms total)
T4830 001:370 JLINK_Go() (0002ms, 0774ms total)
T4830 001:372 JLINK_IsHalted()  returns FALSE (0001ms, 0775ms total)
T4830 001:530 JLINK_IsHalted() -- CPU_ReadMem(2 bytes @ 0x20000000)  returns TRUE (0005ms, 0779ms total)
T4830 001:535 JLINK_ReadReg(R15 (PC))  returns 0x20000000 (0000ms, 0774ms total)
T4830 001:535 JLINK_ClrBPEx(BPHandle = 0x00000005)  returns 0x00 (0000ms, 0774ms total)
T4830 001:535 JLINK_ReadReg(R0)  returns 0x00000000 (0000ms, 0774ms total)
T4830 001:536 JLINK_WriteMem(0x20000164, 0x0400 Bytes, ...) - Data: 06 A9 22 48 34 38 03 F0 A1 FE 60 20 AD F8 08 00 ... -- CPU_WriteMem(1024 bytes @ 0x20000164)  returns 0x400 (0013ms, 0787ms total)
T4830 001:549 JLINK_WriteReg(R0, 0x08000400)  returns 0x00 (0000ms, 0787ms total)
T4830 001:549 JLINK_WriteReg(R1, 0x00000400)  returns 0x00 (0000ms, 0787ms total)
T4830 001:549 JLINK_WriteReg(R2, 0x20000164)  returns 0x00 (0000ms, 0787ms total)
T4830 001:549 JLINK_WriteReg(R3, 0x00000000)  returns 0x00 (0000ms, 0787ms total)
T4830 001:549 JLINK_WriteReg(R4, 0x00000000)  returns 0x00 (0000ms, 0787ms total)
T4830 001:549 JLINK_WriteReg(R5, 0x00000000)  returns 0x00 (0000ms, 0787ms total)
T4830 001:549 JLINK_WriteReg(R6, 0x00000000)  returns 0x00 (0000ms, 0787ms total)
T4830 001:549 JLINK_WriteReg(R7, 0x00000000)  returns 0x00 (0000ms, 0787ms total)
T4830 001:549 JLINK_WriteReg(R8, 0x00000000)  returns 0x00 (0000ms, 0787ms total)
T4830 001:549 JLINK_WriteReg(R9, 0x20000160)  returns 0x00 (0000ms, 0787ms total)
T4830 001:549 JLINK_WriteReg(R10, 0x00000000)  returns 0x00 (0000ms, 0787ms total)
T4830 001:549 JLINK_WriteReg(R11, 0x00000000)  returns 0x00 (0000ms, 0787ms total)
T4830 001:549 JLINK_WriteReg(R12, 0x00000000)  returns 0x00 (0000ms, 0787ms total)
T4830 001:549 JLINK_WriteReg(R13 (SP), 0x20000800)  returns 0x00 (0000ms, 0787ms total)
T4830 001:549 JLINK_WriteReg(R14, 0x20000001)  returns 0x00 (0000ms, 0787ms total)
T4830 001:549 JLINK_WriteReg(R15 (PC), 0x200000F4)  returns 0x00 (0000ms, 0787ms total)
T4830 001:549 JLINK_WriteReg(XPSR, 0x01000000)  returns 0x00 (0000ms, 0787ms total)
T4830 001:549 JLINK_WriteReg(MSP, 0x20000800)  returns 0x00 (0000ms, 0787ms total)
T4830 001:549 JLINK_WriteReg(PSP, 0x20000800)  returns 0x00 (0000ms, 0787ms total)
T4830 001:549 JLINK_WriteReg(CFBP, 0x00000000)  returns 0x00 (0000ms, 0787ms total)
T4830 001:549 JLINK_SetBPEx(Addr = 0x20000000, Type = 0xFFFFFFF2)  returns 0x00000006 (0000ms, 0787ms total)
T4830 001:549 JLINK_Go() (0002ms, 0789ms total)
T4830 001:552 JLINK_IsHalted()  returns FALSE (0000ms, 0790ms total)
T4830 001:684 JLINK_IsHalted() -- CPU_ReadMem(2 bytes @ 0x20000000)  returns TRUE (0005ms, 0795ms total)
T4830 001:689 JLINK_ReadReg(R15 (PC))  returns 0x20000000 (0000ms, 0790ms total)
T4830 001:689 JLINK_ClrBPEx(BPHandle = 0x00000006)  returns 0x00 (0000ms, 0790ms total)
T4830 001:689 JLINK_ReadReg(R0)  returns 0x00000000 (0000ms, 0790ms total)
T4830 001:689 JLINK_WriteMem(0x20000164, 0x0400 Bytes, ...) - Data: 33 F8 10 30 1B B2 46 4C 22 78 D4 17 02 EB 94 74 ... -- CPU_WriteMem(1024 bytes @ 0x20000164)  returns 0x400 (0012ms, 0802ms total)
T4830 001:701 JLINK_WriteReg(R0, 0x08000800)  returns 0x00 (0000ms, 0802ms total)
T4830 001:701 JLINK_WriteReg(R1, 0x00000400)  returns 0x00 (0001ms, 0803ms total)
T4830 001:702 JLINK_WriteReg(R2, 0x20000164)  returns 0x00 (0000ms, 0803ms total)
T4830 001:702 JLINK_WriteReg(R3, 0x00000000)  returns 0x00 (0000ms, 0803ms total)
T4830 001:702 JLINK_WriteReg(R4, 0x00000000)  returns 0x00 (0000ms, 0803ms total)
T4830 001:702 JLINK_WriteReg(R5, 0x00000000)  returns 0x00 (0000ms, 0803ms total)
T4830 001:702 JLINK_WriteReg(R6, 0x00000000)  returns 0x00 (0000ms, 0803ms total)
T4830 001:702 JLINK_WriteReg(R7, 0x00000000)  returns 0x00 (0000ms, 0803ms total)
T4830 001:702 JLINK_WriteReg(R8, 0x00000000)  returns 0x00 (0000ms, 0803ms total)
T4830 001:702 JLINK_WriteReg(R9, 0x20000160)  returns 0x00 (0000ms, 0803ms total)
T4830 001:702 JLINK_WriteReg(R10, 0x00000000)  returns 0x00 (0000ms, 0803ms total)
T4830 001:702 JLINK_WriteReg(R11, 0x00000000)  returns 0x00 (0000ms, 0803ms total)
T4830 001:702 JLINK_WriteReg(R12, 0x00000000)  returns 0x00 (0000ms, 0803ms total)
T4830 001:702 JLINK_WriteReg(R13 (SP), 0x20000800)  returns 0x00 (0000ms, 0803ms total)
T4830 001:702 JLINK_WriteReg(R14, 0x20000001)  returns 0x00 (0000ms, 0803ms total)
T4830 001:702 JLINK_WriteReg(R15 (PC), 0x200000F4)  returns 0x00 (0000ms, 0803ms total)
T4830 001:702 JLINK_WriteReg(XPSR, 0x01000000)  returns 0x00 (0000ms, 0803ms total)
T4830 001:702 JLINK_WriteReg(MSP, 0x20000800)  returns 0x00 (0000ms, 0803ms total)
T4830 001:702 JLINK_WriteReg(PSP, 0x20000800)  returns 0x00 (0000ms, 0803ms total)
T4830 001:702 JLINK_WriteReg(CFBP, 0x00000000)  returns 0x00 (0000ms, 0803ms total)
T4830 001:702 JLINK_SetBPEx(Addr = 0x20000000, Type = 0xFFFFFFF2)  returns 0x00000007 (0000ms, 0803ms total)
T4830 001:702 JLINK_Go() (0002ms, 0805ms total)
T4830 001:704 JLINK_IsHalted()  returns FALSE (0001ms, 0806ms total)
T4830 001:842 JLINK_IsHalted() -- CPU_ReadMem(2 bytes @ 0x20000000)  returns TRUE (0004ms, 0809ms total)
T4830 001:847 JLINK_ReadReg(R15 (PC))  returns 0x20000000 (0000ms, 0805ms total)
T4830 001:847 JLINK_ClrBPEx(BPHandle = 0x00000007)  returns 0x00 (0000ms, 0805ms total)
T4830 001:847 JLINK_ReadReg(R0)  returns 0x00000000 (0000ms, 0805ms total)
T4830 001:847 JLINK_WriteMem(0x20000164, 0x0400 Bytes, ...) - Data: 04 F0 3A FC 0C 90 DD 48 00 68 0A 90 11 99 04 F0 ... -- CPU_WriteMem(1024 bytes @ 0x20000164)  returns 0x400 (0012ms, 0817ms total)
T4830 001:859 JLINK_WriteReg(R0, 0x08000C00)  returns 0x00 (0000ms, 0817ms total)
T4830 001:859 JLINK_WriteReg(R1, 0x00000400)  returns 0x00 (0000ms, 0817ms total)
T4830 001:860 JLINK_WriteReg(R2, 0x20000164)  returns 0x00 (0000ms, 0818ms total)
T4830 001:860 JLINK_WriteReg(R3, 0x00000000)  returns 0x00 (0000ms, 0818ms total)
T4830 001:860 JLINK_WriteReg(R4, 0x00000000)  returns 0x00 (0000ms, 0818ms total)
T4830 001:860 JLINK_WriteReg(R5, 0x00000000)  returns 0x00 (0000ms, 0818ms total)
T4830 001:860 JLINK_WriteReg(R6, 0x00000000)  returns 0x00 (0000ms, 0818ms total)
T4830 001:860 JLINK_WriteReg(R7, 0x00000000)  returns 0x00 (0000ms, 0818ms total)
T4830 001:860 JLINK_WriteReg(R8, 0x00000000)  returns 0x00 (0000ms, 0818ms total)
T4830 001:860 JLINK_WriteReg(R9, 0x20000160)  returns 0x00 (0000ms, 0818ms total)
T4830 001:860 JLINK_WriteReg(R10, 0x00000000)  returns 0x00 (0000ms, 0818ms total)
T4830 001:860 JLINK_WriteReg(R11, 0x00000000)  returns 0x00 (0000ms, 0818ms total)
T4830 001:860 JLINK_WriteReg(R12, 0x00000000)  returns 0x00 (0000ms, 0818ms total)
T4830 001:860 JLINK_WriteReg(R13 (SP), 0x20000800)  returns 0x00 (0000ms, 0818ms total)
T4830 001:860 JLINK_WriteReg(R14, 0x20000001)  returns 0x00 (0000ms, 0818ms total)
T4830 001:860 JLINK_WriteReg(R15 (PC), 0x200000F4)  returns 0x00 (0000ms, 0818ms total)
T4830 001:860 JLINK_WriteReg(XPSR, 0x01000000)  returns 0x00 (0000ms, 0818ms total)
T4830 001:860 JLINK_WriteReg(MSP, 0x20000800)  returns 0x00 (0000ms, 0818ms total)
T4830 001:860 JLINK_WriteReg(PSP, 0x20000800)  returns 0x00 (0000ms, 0818ms total)
T4830 001:860 JLINK_WriteReg(CFBP, 0x00000000)  returns 0x00 (0000ms, 0818ms total)
T4830 001:860 JLINK_SetBPEx(Addr = 0x20000000, Type = 0xFFFFFFF2)  returns 0x00000008 (0000ms, 0818ms total)
T4830 001:860 JLINK_Go() (0002ms, 0820ms total)
T4830 001:862 JLINK_IsHalted()  returns FALSE (0001ms, 0821ms total)
T4830 001:993 JLINK_IsHalted() -- CPU_ReadMem(2 bytes @ 0x20000000)  returns TRUE (0004ms, 0824ms total)
T4830 001:997 JLINK_ReadReg(R15 (PC))  returns 0x20000000 (0001ms, 0821ms total)
T4830 001:998 JLINK_ClrBPEx(BPHandle = 0x00000008)  returns 0x00 (0000ms, 0821ms total)
T4830 001:998 JLINK_ReadReg(R0)  returns 0x00000000 (0000ms, 0821ms total)
T4830 001:998 JLINK_WriteMem(0x20000164, 0x0400 Bytes, ...) - Data: 03 90 04 F0 40 FC CD E9 04 01 DD E9 06 23 04 F0 ... -- CPU_WriteMem(1024 bytes @ 0x20000164)  returns 0x400 (0012ms, 0833ms total)
T4830 002:010 JLINK_WriteReg(R0, 0x08001000)  returns 0x00 (0001ms, 0834ms total)
T4830 002:011 JLINK_WriteReg(R1, 0x00000400)  returns 0x00 (0000ms, 0834ms total)
T4830 002:011 JLINK_WriteReg(R2, 0x20000164)  returns 0x00 (0000ms, 0834ms total)
T4830 002:011 JLINK_WriteReg(R3, 0x00000000)  returns 0x00 (0000ms, 0834ms total)
T4830 002:011 JLINK_WriteReg(R4, 0x00000000)  returns 0x00 (0000ms, 0834ms total)
T4830 002:011 JLINK_WriteReg(R5, 0x00000000)  returns 0x00 (0001ms, 0835ms total)
T4830 002:012 JLINK_WriteReg(R6, 0x00000000)  returns 0x00 (0000ms, 0835ms total)
T4830 002:012 JLINK_WriteReg(R7, 0x00000000)  returns 0x00 (0000ms, 0835ms total)
T4830 002:012 JLINK_WriteReg(R8, 0x00000000)  returns 0x00 (0000ms, 0835ms total)
T4830 002:012 JLINK_WriteReg(R9, 0x20000160)  returns 0x00 (0000ms, 0835ms total)
T4830 002:012 JLINK_WriteReg(R10, 0x00000000)  returns 0x00 (0000ms, 0835ms total)
T4830 002:012 JLINK_WriteReg(R11, 0x00000000)  returns 0x00 (0000ms, 0835ms total)
T4830 002:012 JLINK_WriteReg(R12, 0x00000000)  returns 0x00 (0000ms, 0835ms total)
T4830 002:012 JLINK_WriteReg(R13 (SP), 0x20000800)  returns 0x00 (0000ms, 0835ms total)
T4830 002:012 JLINK_WriteReg(R14, 0x20000001)  returns 0x00 (0000ms, 0835ms total)
T4830 002:012 JLINK_WriteReg(R15 (PC), 0x200000F4)  returns 0x00 (0000ms, 0835ms total)
T4830 002:012 JLINK_WriteReg(XPSR, 0x01000000)  returns 0x00 (0000ms, 0835ms total)
T4830 002:012 JLINK_WriteReg(MSP, 0x20000800)  returns 0x00 (0000ms, 0835ms total)
T4830 002:012 JLINK_WriteReg(PSP, 0x20000800)  returns 0x00 (0000ms, 0835ms total)
T4830 002:012 JLINK_WriteReg(CFBP, 0x00000000)  returns 0x00 (0000ms, 0835ms total)
T4830 002:012 JLINK_SetBPEx(Addr = 0x20000000, Type = 0xFFFFFFF2)  returns 0x00000009 (0000ms, 0835ms total)
T4830 002:012 JLINK_Go() (0002ms, 0837ms total)
T4830 002:014 JLINK_IsHalted()  returns FALSE (0001ms, 0838ms total)
T4830 002:157 JLINK_IsHalted() -- CPU_ReadMem(2 bytes @ 0x20000000)  returns TRUE (0004ms, 0841ms total)
T4830 002:161 JLINK_ReadReg(R15 (PC))  returns 0x20000000 (0001ms, 0838ms total)
T4830 002:162 JLINK_ClrBPEx(BPHandle = 0x00000009)  returns 0x00 (0000ms, 0838ms total)
T4830 002:162 JLINK_ReadReg(R0)  returns 0x00000000 (0000ms, 0838ms total)
T4830 002:162 JLINK_WriteMem(0x20000164, 0x0400 Bytes, ...) - Data: 93 48 42 79 20 46 61 1C CC B2 8D 49 0A 54 90 48 ... -- CPU_WriteMem(1024 bytes @ 0x20000164)  returns 0x400 (0013ms, 0851ms total)
T4830 002:175 JLINK_WriteReg(R0, 0x08001400)  returns 0x00 (0000ms, 0851ms total)
T4830 002:175 JLINK_WriteReg(R1, 0x00000400)  returns 0x00 (0000ms, 0851ms total)
T4830 002:175 JLINK_WriteReg(R2, 0x20000164)  returns 0x00 (0000ms, 0851ms total)
T4830 002:175 JLINK_WriteReg(R3, 0x00000000)  returns 0x00 (0000ms, 0851ms total)
T4830 002:175 JLINK_WriteReg(R4, 0x00000000)  returns 0x00 (0000ms, 0851ms total)
T4830 002:175 JLINK_WriteReg(R5, 0x00000000)  returns 0x00 (0000ms, 0851ms total)
T4830 002:175 JLINK_WriteReg(R6, 0x00000000)  returns 0x00 (0000ms, 0851ms total)
T4830 002:175 JLINK_WriteReg(R7, 0x00000000)  returns 0x00 (0000ms, 0851ms total)
T4830 002:175 JLINK_WriteReg(R8, 0x00000000)  returns 0x00 (0000ms, 0851ms total)
T4830 002:175 JLINK_WriteReg(R9, 0x20000160)  returns 0x00 (0000ms, 0851ms total)
T4830 002:175 JLINK_WriteReg(R10, 0x00000000)  returns 0x00 (0000ms, 0851ms total)
T4830 002:175 JLINK_WriteReg(R11, 0x00000000)  returns 0x00 (0000ms, 0851ms total)
T4830 002:175 JLINK_WriteReg(R12, 0x00000000)  returns 0x00 (0000ms, 0851ms total)
T4830 002:175 JLINK_WriteReg(R13 (SP), 0x20000800)  returns 0x00 (0000ms, 0851ms total)
T4830 002:175 JLINK_WriteReg(R14, 0x20000001)  returns 0x00 (0000ms, 0851ms total)
T4830 002:175 JLINK_WriteReg(R15 (PC), 0x200000F4)  returns 0x00 (0000ms, 0851ms total)
T4830 002:175 JLINK_WriteReg(XPSR, 0x01000000)  returns 0x00 (0000ms, 0851ms total)
T4830 002:175 JLINK_WriteReg(MSP, 0x20000800)  returns 0x00 (0000ms, 0851ms total)
T4830 002:175 JLINK_WriteReg(PSP, 0x20000800)  returns 0x00 (0000ms, 0851ms total)
T4830 002:175 JLINK_WriteReg(CFBP, 0x00000000)  returns 0x00 (0000ms, 0851ms total)
T4830 002:176 JLINK_SetBPEx(Addr = 0x20000000, Type = 0xFFFFFFF2)  returns 0x0000000A (0000ms, 0852ms total)
T4830 002:176 JLINK_Go() (0002ms, 0854ms total)
T4830 002:178 JLINK_IsHalted()  returns FALSE (0001ms, 0855ms total)
T4830 002:333 JLINK_IsHalted() -- CPU_ReadMem(2 bytes @ 0x20000000)  returns TRUE (0005ms, 0859ms total)
T4830 002:338 JLINK_ReadReg(R15 (PC))  returns 0x20000000 (0000ms, 0854ms total)
T4830 002:338 JLINK_ClrBPEx(BPHandle = 0x0000000A)  returns 0x00 (0000ms, 0854ms total)
T4830 002:338 JLINK_ReadReg(R0)  returns 0x00000000 (0000ms, 0854ms total)
T4830 002:338 JLINK_WriteMem(0x20000164, 0x0400 Bytes, ...) - Data: 33 48 42 54 9D F8 00 20 20 46 61 1C CC B2 30 49 ... -- CPU_WriteMem(1024 bytes @ 0x20000164)  returns 0x400 (0012ms, 0866ms total)
T4830 002:350 JLINK_WriteReg(R0, 0x08001800)  returns 0x00 (0001ms, 0867ms total)
T4830 002:351 JLINK_WriteReg(R1, 0x00000400)  returns 0x00 (0000ms, 0867ms total)
T4830 002:351 JLINK_WriteReg(R2, 0x20000164)  returns 0x00 (0000ms, 0867ms total)
T4830 002:351 JLINK_WriteReg(R3, 0x00000000)  returns 0x00 (0000ms, 0867ms total)
T4830 002:351 JLINK_WriteReg(R4, 0x00000000)  returns 0x00 (0000ms, 0867ms total)
T4830 002:351 JLINK_WriteReg(R5, 0x00000000)  returns 0x00 (0000ms, 0867ms total)
T4830 002:351 JLINK_WriteReg(R6, 0x00000000)  returns 0x00 (0000ms, 0867ms total)
T4830 002:351 JLINK_WriteReg(R7, 0x00000000)  returns 0x00 (0000ms, 0867ms total)
T4830 002:351 JLINK_WriteReg(R8, 0x00000000)  returns 0x00 (0000ms, 0867ms total)
T4830 002:351 JLINK_WriteReg(R9, 0x20000160)  returns 0x00 (0000ms, 0867ms total)
T4830 002:351 JLINK_WriteReg(R10, 0x00000000)  returns 0x00 (0000ms, 0867ms total)
T4830 002:351 JLINK_WriteReg(R11, 0x00000000)  returns 0x00 (0000ms, 0867ms total)
T4830 002:351 JLINK_WriteReg(R12, 0x00000000)  returns 0x00 (0000ms, 0867ms total)
T4830 002:351 JLINK_WriteReg(R13 (SP), 0x20000800)  returns 0x00 (0000ms, 0867ms total)
T4830 002:351 JLINK_WriteReg(R14, 0x20000001)  returns 0x00 (0000ms, 0867ms total)
T4830 002:351 JLINK_WriteReg(R15 (PC), 0x200000F4)  returns 0x00 (0000ms, 0867ms total)
T4830 002:351 JLINK_WriteReg(XPSR, 0x01000000)  returns 0x00 (0000ms, 0867ms total)
T4830 002:351 JLINK_WriteReg(MSP, 0x20000800)  returns 0x00 (0000ms, 0867ms total)
T4830 002:351 JLINK_WriteReg(PSP, 0x20000800)  returns 0x00 (0000ms, 0867ms total)
T4830 002:351 JLINK_WriteReg(CFBP, 0x00000000)  returns 0x00 (0000ms, 0867ms total)
T4830 002:351 JLINK_SetBPEx(Addr = 0x20000000, Type = 0xFFFFFFF2)  returns 0x0000000B (0000ms, 0867ms total)
T4830 002:351 JLINK_Go() (0002ms, 0869ms total)
T4830 002:354 JLINK_IsHalted()  returns FALSE (0001ms, 0871ms total)
T4830 002:492 JLINK_IsHalted() -- CPU_ReadMem(2 bytes @ 0x20000000)  returns TRUE (0004ms, 0874ms total)
T4830 002:496 JLINK_ReadReg(R15 (PC))  returns 0x20000000 (0001ms, 0871ms total)
T4830 002:497 JLINK_ClrBPEx(BPHandle = 0x0000000B)  returns 0x00 (0000ms, 0871ms total)
T4830 002:497 JLINK_ReadReg(R0)  returns 0x00000000 (0000ms, 0871ms total)
T4830 002:497 JLINK_WriteMem(0x20000164, 0x0400 Bytes, ...) - Data: 30 98 03 F0 6F FC 30 90 2C 99 32 98 03 F0 6A FC ... -- CPU_WriteMem(1024 bytes @ 0x20000164)  returns 0x400 (0012ms, 0883ms total)
T4830 002:509 JLINK_WriteReg(R0, 0x08001C00)  returns 0x00 (0000ms, 0883ms total)
T4830 002:509 JLINK_WriteReg(R1, 0x00000400)  returns 0x00 (0000ms, 0883ms total)
T4830 002:509 JLINK_WriteReg(R2, 0x20000164)  returns 0x00 (0000ms, 0883ms total)
T4830 002:509 JLINK_WriteReg(R3, 0x00000000)  returns 0x00 (0000ms, 0883ms total)
T4830 002:510 JLINK_WriteReg(R4, 0x00000000)  returns 0x00 (0000ms, 0884ms total)
T4830 002:510 JLINK_WriteReg(R5, 0x00000000)  returns 0x00 (0000ms, 0884ms total)
T4830 002:510 JLINK_WriteReg(R6, 0x00000000)  returns 0x00 (0000ms, 0884ms total)
T4830 002:510 JLINK_WriteReg(R7, 0x00000000)  returns 0x00 (0000ms, 0884ms total)
T4830 002:510 JLINK_WriteReg(R8, 0x00000000)  returns 0x00 (0000ms, 0884ms total)
T4830 002:510 JLINK_WriteReg(R9, 0x20000160)  returns 0x00 (0000ms, 0884ms total)
T4830 002:510 JLINK_WriteReg(R10, 0x00000000)  returns 0x00 (0000ms, 0884ms total)
T4830 002:510 JLINK_WriteReg(R11, 0x00000000)  returns 0x00 (0000ms, 0884ms total)
T4830 002:510 JLINK_WriteReg(R12, 0x00000000)  returns 0x00 (0000ms, 0884ms total)
T4830 002:510 JLINK_WriteReg(R13 (SP), 0x20000800)  returns 0x00 (0000ms, 0884ms total)
T4830 002:510 JLINK_WriteReg(R14, 0x20000001)  returns 0x00 (0000ms, 0884ms total)
T4830 002:510 JLINK_WriteReg(R15 (PC), 0x200000F4)  returns 0x00 (0000ms, 0884ms total)
T4830 002:510 JLINK_WriteReg(XPSR, 0x01000000)  returns 0x00 (0000ms, 0884ms total)
T4830 002:510 JLINK_WriteReg(MSP, 0x20000800)  returns 0x00 (0000ms, 0884ms total)
T4830 002:510 JLINK_WriteReg(PSP, 0x20000800)  returns 0x00 (0000ms, 0884ms total)
T4830 002:510 JLINK_WriteReg(CFBP, 0x00000000)  returns 0x00 (0000ms, 0884ms total)
T4830 002:510 JLINK_SetBPEx(Addr = 0x20000000, Type = 0xFFFFFFF2)  returns 0x0000000C (0000ms, 0884ms total)
T4830 002:510 JLINK_Go() (0002ms, 0886ms total)
T4830 002:512 JLINK_IsHalted()  returns FALSE (0001ms, 0887ms total)
T4830 002:656 JLINK_IsHalted() -- CPU_ReadMem(2 bytes @ 0x20000000)  returns TRUE (0004ms, 0890ms total)
T4830 002:660 JLINK_ReadReg(R15 (PC))  returns 0x20000000 (0000ms, 0886ms total)
T4830 002:660 JLINK_ClrBPEx(BPHandle = 0x0000000C)  returns 0x00 (0001ms, 0887ms total)
T4830 002:661 JLINK_ReadReg(R0)  returns 0x00000000 (0000ms, 0887ms total)
T4830 002:662 JLINK_WriteMem(0x20000164, 0x0400 Bytes, ...) - Data: 03 F0 34 FA 11 90 4F F0 80 40 28 99 03 F0 34 FA ... -- CPU_WriteMem(1024 bytes @ 0x20000164)  returns 0x400 (0012ms, 0899ms total)
T4830 002:675 JLINK_WriteReg(R0, 0x08002000)  returns 0x00 (0000ms, 0900ms total)
T4830 002:675 JLINK_WriteReg(R1, 0x00000400)  returns 0x00 (0000ms, 0900ms total)
T4830 002:675 JLINK_WriteReg(R2, 0x20000164)  returns 0x00 (0000ms, 0900ms total)
T4830 002:675 JLINK_WriteReg(R3, 0x00000000)  returns 0x00 (0000ms, 0900ms total)
T4830 002:675 JLINK_WriteReg(R4, 0x00000000)  returns 0x00 (0000ms, 0900ms total)
T4830 002:675 JLINK_WriteReg(R5, 0x00000000)  returns 0x00 (0000ms, 0900ms total)
T4830 002:675 JLINK_WriteReg(R6, 0x00000000)  returns 0x00 (0000ms, 0900ms total)
T4830 002:675 JLINK_WriteReg(R7, 0x00000000)  returns 0x00 (0000ms, 0900ms total)
T4830 002:675 JLINK_WriteReg(R8, 0x00000000)  returns 0x00 (0000ms, 0900ms total)
T4830 002:675 JLINK_WriteReg(R9, 0x20000160)  returns 0x00 (0000ms, 0900ms total)
T4830 002:675 JLINK_WriteReg(R10, 0x00000000)  returns 0x00 (0000ms, 0900ms total)
T4830 002:675 JLINK_WriteReg(R11, 0x00000000)  returns 0x00 (0000ms, 0900ms total)
T4830 002:675 JLINK_WriteReg(R12, 0x00000000)  returns 0x00 (0000ms, 0900ms total)
T4830 002:675 JLINK_WriteReg(R13 (SP), 0x20000800)  returns 0x00 (0000ms, 0900ms total)
T4830 002:675 JLINK_WriteReg(R14, 0x20000001)  returns 0x00 (0000ms, 0900ms total)
T4830 002:675 JLINK_WriteReg(R15 (PC), 0x200000F4)  returns 0x00 (0000ms, 0900ms total)
T4830 002:675 JLINK_WriteReg(XPSR, 0x01000000)  returns 0x00 (0000ms, 0900ms total)
T4830 002:675 JLINK_WriteReg(MSP, 0x20000800)  returns 0x00 (0000ms, 0900ms total)
T4830 002:675 JLINK_WriteReg(PSP, 0x20000800)  returns 0x00 (0000ms, 0900ms total)
T4830 002:675 JLINK_WriteReg(CFBP, 0x00000000)  returns 0x00 (0000ms, 0900ms total)
T4830 002:675 JLINK_SetBPEx(Addr = 0x20000000, Type = 0xFFFFFFF2)  returns 0x0000000D (0000ms, 0900ms total)
T4830 002:675 JLINK_Go() (0003ms, 0903ms total)
T4830 002:678 JLINK_IsHalted()  returns FALSE (0001ms, 0904ms total)
T4830 002:807 JLINK_IsHalted() -- CPU_ReadMem(2 bytes @ 0x20000000)  returns TRUE (0004ms, 0907ms total)
T4830 002:811 JLINK_ReadReg(R15 (PC))  returns 0x20000000 (0001ms, 0904ms total)
T4830 002:812 JLINK_ClrBPEx(BPHandle = 0x0000000D)  returns 0x00 (0000ms, 0904ms total)
T4830 002:812 JLINK_ReadReg(R0)  returns 0x00000000 (0000ms, 0904ms total)
T4830 002:812 JLINK_WriteMem(0x20000164, 0x0400 Bytes, ...) - Data: 71 48 01 68 4F F0 40 40 03 F0 36 F8 07 90 6E 48 ... -- CPU_WriteMem(1024 bytes @ 0x20000164)  returns 0x400 (0012ms, 0916ms total)
T4830 002:824 JLINK_WriteReg(R0, 0x08002400)  returns 0x00 (0000ms, 0916ms total)
T4830 002:824 JLINK_WriteReg(R1, 0x00000400)  returns 0x00 (0000ms, 0916ms total)
T4830 002:824 JLINK_WriteReg(R2, 0x20000164)  returns 0x00 (0000ms, 0916ms total)
T4830 002:824 JLINK_WriteReg(R3, 0x00000000)  returns 0x00 (0000ms, 0916ms total)
T4830 002:825 JLINK_WriteReg(R4, 0x00000000)  returns 0x00 (0000ms, 0917ms total)
T4830 002:825 JLINK_WriteReg(R5, 0x00000000)  returns 0x00 (0000ms, 0917ms total)
T4830 002:825 JLINK_WriteReg(R6, 0x00000000)  returns 0x00 (0000ms, 0917ms total)
T4830 002:825 JLINK_WriteReg(R7, 0x00000000)  returns 0x00 (0000ms, 0917ms total)
T4830 002:825 JLINK_WriteReg(R8, 0x00000000)  returns 0x00 (0000ms, 0917ms total)
T4830 002:825 JLINK_WriteReg(R9, 0x20000160)  returns 0x00 (0000ms, 0917ms total)
T4830 002:825 JLINK_WriteReg(R10, 0x00000000)  returns 0x00 (0000ms, 0917ms total)
T4830 002:825 JLINK_WriteReg(R11, 0x00000000)  returns 0x00 (0000ms, 0917ms total)
T4830 002:825 JLINK_WriteReg(R12, 0x00000000)  returns 0x00 (0000ms, 0917ms total)
T4830 002:825 JLINK_WriteReg(R13 (SP), 0x20000800)  returns 0x00 (0000ms, 0917ms total)
T4830 002:825 JLINK_WriteReg(R14, 0x20000001)  returns 0x00 (0000ms, 0917ms total)
T4830 002:825 JLINK_WriteReg(R15 (PC), 0x200000F4)  returns 0x00 (0000ms, 0917ms total)
T4830 002:825 JLINK_WriteReg(XPSR, 0x01000000)  returns 0x00 (0000ms, 0917ms total)
T4830 002:825 JLINK_WriteReg(MSP, 0x20000800)  returns 0x00 (0000ms, 0917ms total)
T4830 002:825 JLINK_WriteReg(PSP, 0x20000800)  returns 0x00 (0000ms, 0917ms total)
T4830 002:825 JLINK_WriteReg(CFBP, 0x00000000)  returns 0x00 (0000ms, 0917ms total)
T4830 002:825 JLINK_SetBPEx(Addr = 0x20000000, Type = 0xFFFFFFF2)  returns 0x0000000E (0000ms, 0917ms total)
T4830 002:825 JLINK_Go() (0003ms, 0920ms total)
T4830 002:828 JLINK_IsHalted()  returns FALSE (0001ms, 0921ms total)
T4830 002:955 JLINK_IsHalted() -- CPU_ReadMem(2 bytes @ 0x20000000)  returns TRUE (0005ms, 0925ms total)
T4830 002:960 JLINK_ReadReg(R15 (PC))  returns 0x20000000 (0000ms, 0920ms total)
T4830 002:960 JLINK_ClrBPEx(BPHandle = 0x0000000E)  returns 0x00 (0000ms, 0920ms total)
T4830 002:960 JLINK_ReadReg(R0)  returns 0x00000000 (0000ms, 0920ms total)
T4830 002:960 JLINK_WriteMem(0x20000164, 0x0400 Bytes, ...) - Data: 00 F0 D9 FF 4F F4 80 41 46 48 00 F0 D4 FF 64 20 ... -- CPU_WriteMem(1024 bytes @ 0x20000164)  returns 0x400 (0013ms, 0933ms total)
T4830 002:973 JLINK_WriteReg(R0, 0x08002800)  returns 0x00 (0000ms, 0933ms total)
T4830 002:973 JLINK_WriteReg(R1, 0x00000400)  returns 0x00 (0000ms, 0933ms total)
T4830 002:973 JLINK_WriteReg(R2, 0x20000164)  returns 0x00 (0000ms, 0933ms total)
T4830 002:973 JLINK_WriteReg(R3, 0x00000000)  returns 0x00 (0000ms, 0933ms total)
T4830 002:973 JLINK_WriteReg(R4, 0x00000000)  returns 0x00 (0000ms, 0933ms total)
T4830 002:973 JLINK_WriteReg(R5, 0x00000000)  returns 0x00 (0000ms, 0933ms total)
T4830 002:973 JLINK_WriteReg(R6, 0x00000000)  returns 0x00 (0000ms, 0933ms total)
T4830 002:973 JLINK_WriteReg(R7, 0x00000000)  returns 0x00 (0000ms, 0933ms total)
T4830 002:973 JLINK_WriteReg(R8, 0x00000000)  returns 0x00 (0000ms, 0933ms total)
T4830 002:973 JLINK_WriteReg(R9, 0x20000160)  returns 0x00 (0000ms, 0933ms total)
T4830 002:973 JLINK_WriteReg(R10, 0x00000000)  returns 0x00 (0000ms, 0933ms total)
T4830 002:973 JLINK_WriteReg(R11, 0x00000000)  returns 0x00 (0000ms, 0933ms total)
T4830 002:973 JLINK_WriteReg(R12, 0x00000000)  returns 0x00 (0000ms, 0933ms total)
T4830 002:973 JLINK_WriteReg(R13 (SP), 0x20000800)  returns 0x00 (0000ms, 0933ms total)
T4830 002:973 JLINK_WriteReg(R14, 0x20000001)  returns 0x00 (0000ms, 0933ms total)
T4830 002:973 JLINK_WriteReg(R15 (PC), 0x200000F4)  returns 0x00 (0000ms, 0933ms total)
T4830 002:973 JLINK_WriteReg(XPSR, 0x01000000)  returns 0x00 (0000ms, 0933ms total)
T4830 002:973 JLINK_WriteReg(MSP, 0x20000800)  returns 0x00 (0000ms, 0933ms total)
T4830 002:973 JLINK_WriteReg(PSP, 0x20000800)  returns 0x00 (0000ms, 0933ms total)
T4830 002:973 JLINK_WriteReg(CFBP, 0x00000000)  returns 0x00 (0000ms, 0933ms total)
T4830 002:973 JLINK_SetBPEx(Addr = 0x20000000, Type = 0xFFFFFFF2)  returns 0x0000000F (0000ms, 0933ms total)
T4830 002:973 JLINK_Go() (0004ms, 0937ms total)
T4830 002:977 JLINK_IsHalted()  returns FALSE (0001ms, 0938ms total)
T4830 003:112 JLINK_IsHalted() -- CPU_ReadMem(2 bytes @ 0x20000000)  returns TRUE (0005ms, 0942ms total)
T4830 003:117 JLINK_ReadReg(R15 (PC))  returns 0x20000000 (0000ms, 0937ms total)
T4830 003:117 JLINK_ClrBPEx(BPHandle = 0x0000000F)  returns 0x00 (0001ms, 0938ms total)
T4830 003:118 JLINK_ReadReg(R0)  returns 0x00000000 (0000ms, 0938ms total)
T4830 003:118 JLINK_WriteMem(0x20000164, 0x0400 Bytes, ...) - Data: 40 EA 01 20 00 B2 C4 49 88 80 01 20 BE 49 08 60 ... -- CPU_WriteMem(1024 bytes @ 0x20000164)  returns 0x400 (0013ms, 0951ms total)
T4830 003:131 JLINK_WriteReg(R0, 0x08002C00)  returns 0x00 (0000ms, 0951ms total)
T4830 003:131 JLINK_WriteReg(R1, 0x00000400)  returns 0x00 (0000ms, 0951ms total)
T4830 003:131 JLINK_WriteReg(R2, 0x20000164)  returns 0x00 (0000ms, 0951ms total)
T4830 003:131 JLINK_WriteReg(R3, 0x00000000)  returns 0x00 (0000ms, 0951ms total)
T4830 003:131 JLINK_WriteReg(R4, 0x00000000)  returns 0x00 (0000ms, 0951ms total)
T4830 003:131 JLINK_WriteReg(R5, 0x00000000)  returns 0x00 (0000ms, 0951ms total)
T4830 003:131 JLINK_WriteReg(R6, 0x00000000)  returns 0x00 (0000ms, 0951ms total)
T4830 003:131 JLINK_WriteReg(R7, 0x00000000)  returns 0x00 (0000ms, 0951ms total)
T4830 003:131 JLINK_WriteReg(R8, 0x00000000)  returns 0x00 (0000ms, 0951ms total)
T4830 003:131 JLINK_WriteReg(R9, 0x20000160)  returns 0x00 (0000ms, 0951ms total)
T4830 003:131 JLINK_WriteReg(R10, 0x00000000)  returns 0x00 (0000ms, 0951ms total)
T4830 003:131 JLINK_WriteReg(R11, 0x00000000)  returns 0x00 (0000ms, 0951ms total)
T4830 003:131 JLINK_WriteReg(R12, 0x00000000)  returns 0x00 (0000ms, 0951ms total)
T4830 003:131 JLINK_WriteReg(R13 (SP), 0x20000800)  returns 0x00 (0000ms, 0951ms total)
T4830 003:131 JLINK_WriteReg(R14, 0x20000001)  returns 0x00 (0000ms, 0951ms total)
T4830 003:131 JLINK_WriteReg(R15 (PC), 0x200000F4)  returns 0x00 (0000ms, 0951ms total)
T4830 003:131 JLINK_WriteReg(XPSR, 0x01000000)  returns 0x00 (0000ms, 0951ms total)
T4830 003:131 JLINK_WriteReg(MSP, 0x20000800)  returns 0x00 (0000ms, 0951ms total)
T4830 003:131 JLINK_WriteReg(PSP, 0x20000800)  returns 0x00 (0000ms, 0951ms total)
T4830 003:131 JLINK_WriteReg(CFBP, 0x00000000)  returns 0x00 (0000ms, 0951ms total)
T4830 003:131 JLINK_SetBPEx(Addr = 0x20000000, Type = 0xFFFFFFF2)  returns 0x00000010 (0001ms, 0952ms total)
T4830 003:132 JLINK_Go() (0002ms, 0954ms total)
T4830 003:134 JLINK_IsHalted()  returns FALSE (0001ms, 0955ms total)
T4830 003:267 JLINK_IsHalted() -- CPU_ReadMem(2 bytes @ 0x20000000)  returns TRUE (0004ms, 0958ms total)
T4830 003:271 JLINK_ReadReg(R15 (PC))  returns 0x20000000 (0000ms, 0954ms total)
T4830 003:271 JLINK_ClrBPEx(BPHandle = 0x00000010)  returns 0x00 (0000ms, 0954ms total)
T4830 003:271 JLINK_ReadReg(R0)  returns 0x00000000 (0000ms, 0954ms total)
T4830 003:272 JLINK_WriteMem(0x20000164, 0x0400 Bytes, ...) - Data: 10 B5 FE 4B 19 60 4F F0 00 03 FD 4C C4 F8 90 31 ... -- CPU_WriteMem(1024 bytes @ 0x20000164)  returns 0x400 (0013ms, 0967ms total)
T4830 003:285 JLINK_WriteReg(R0, 0x08003000)  returns 0x00 (0000ms, 0967ms total)
T4830 003:285 JLINK_WriteReg(R1, 0x00000400)  returns 0x00 (0000ms, 0967ms total)
T4830 003:285 JLINK_WriteReg(R2, 0x20000164)  returns 0x00 (0000ms, 0967ms total)
T4830 003:285 JLINK_WriteReg(R3, 0x00000000)  returns 0x00 (0000ms, 0967ms total)
T4830 003:285 JLINK_WriteReg(R4, 0x00000000)  returns 0x00 (0000ms, 0967ms total)
T4830 003:285 JLINK_WriteReg(R5, 0x00000000)  returns 0x00 (0000ms, 0967ms total)
T4830 003:285 JLINK_WriteReg(R6, 0x00000000)  returns 0x00 (0000ms, 0967ms total)
T4830 003:285 JLINK_WriteReg(R7, 0x00000000)  returns 0x00 (0000ms, 0967ms total)
T4830 003:285 JLINK_WriteReg(R8, 0x00000000)  returns 0x00 (0000ms, 0967ms total)
T4830 003:285 JLINK_WriteReg(R9, 0x20000160)  returns 0x00 (0000ms, 0967ms total)
T4830 003:285 JLINK_WriteReg(R10, 0x00000000)  returns 0x00 (0000ms, 0967ms total)
T4830 003:285 JLINK_WriteReg(R11, 0x00000000)  returns 0x00 (0000ms, 0967ms total)
T4830 003:285 JLINK_WriteReg(R12, 0x00000000)  returns 0x00 (0000ms, 0967ms total)
T4830 003:285 JLINK_WriteReg(R13 (SP), 0x20000800)  returns 0x00 (0000ms, 0967ms total)
T4830 003:285 JLINK_WriteReg(R14, 0x20000001)  returns 0x00 (0001ms, 0968ms total)
T4830 003:286 JLINK_WriteReg(R15 (PC), 0x200000F4)  returns 0x00 (0000ms, 0968ms total)
T4830 003:286 JLINK_WriteReg(XPSR, 0x01000000)  returns 0x00 (0000ms, 0968ms total)
T4830 003:286 JLINK_WriteReg(MSP, 0x20000800)  returns 0x00 (0000ms, 0968ms total)
T4830 003:286 JLINK_WriteReg(PSP, 0x20000800)  returns 0x00 (0000ms, 0968ms total)
T4830 003:286 JLINK_WriteReg(CFBP, 0x00000000)  returns 0x00 (0000ms, 0968ms total)
T4830 003:286 JLINK_SetBPEx(Addr = 0x20000000, Type = 0xFFFFFFF2)  returns 0x00000011 (0000ms, 0968ms total)
T4830 003:286 JLINK_Go() (0002ms, 0970ms total)
T4830 003:288 JLINK_IsHalted()  returns FALSE (0001ms, 0971ms total)
T4830 003:422 JLINK_IsHalted() -- CPU_ReadMem(2 bytes @ 0x20000000)  returns TRUE (0004ms, 0974ms total)
T4830 003:426 JLINK_ReadReg(R15 (PC))  returns 0x20000000 (0000ms, 0970ms total)
T4830 003:426 JLINK_ClrBPEx(BPHandle = 0x00000011)  returns 0x00 (0001ms, 0971ms total)
T4830 003:427 JLINK_ReadReg(R0)  returns 0x00000000 (0000ms, 0971ms total)
T4830 003:427 JLINK_WriteMem(0x20000164, 0x0400 Bytes, ...) - Data: 00 80 23 42 8C 81 23 42 90 81 23 42 16 03 00 20 ... -- CPU_WriteMem(1024 bytes @ 0x20000164)  returns 0x400 (0012ms, 0983ms total)
T4830 003:439 JLINK_WriteReg(R0, 0x08003400)  returns 0x00 (0000ms, 0983ms total)
T4830 003:439 JLINK_WriteReg(R1, 0x00000400)  returns 0x00 (0001ms, 0984ms total)
T4830 003:440 JLINK_WriteReg(R2, 0x20000164)  returns 0x00 (0000ms, 0984ms total)
T4830 003:440 JLINK_WriteReg(R3, 0x00000000)  returns 0x00 (0000ms, 0984ms total)
T4830 003:440 JLINK_WriteReg(R4, 0x00000000)  returns 0x00 (0000ms, 0984ms total)
T4830 003:440 JLINK_WriteReg(R5, 0x00000000)  returns 0x00 (0000ms, 0984ms total)
T4830 003:440 JLINK_WriteReg(R6, 0x00000000)  returns 0x00 (0000ms, 0984ms total)
T4830 003:440 JLINK_WriteReg(R7, 0x00000000)  returns 0x00 (0000ms, 0984ms total)
T4830 003:440 JLINK_WriteReg(R8, 0x00000000)  returns 0x00 (0000ms, 0984ms total)
T4830 003:440 JLINK_WriteReg(R9, 0x20000160)  returns 0x00 (0000ms, 0984ms total)
T4830 003:440 JLINK_WriteReg(R10, 0x00000000)  returns 0x00 (0000ms, 0984ms total)
T4830 003:440 JLINK_WriteReg(R11, 0x00000000)  returns 0x00 (0000ms, 0984ms total)
T4830 003:440 JLINK_WriteReg(R12, 0x00000000)  returns 0x00 (0000ms, 0984ms total)
T4830 003:440 JLINK_WriteReg(R13 (SP), 0x20000800)  returns 0x00 (0000ms, 0984ms total)
T4830 003:440 JLINK_WriteReg(R14, 0x20000001)  returns 0x00 (0000ms, 0984ms total)
T4830 003:440 JLINK_WriteReg(R15 (PC), 0x200000F4)  returns 0x00 (0000ms, 0984ms total)
T4830 003:440 JLINK_WriteReg(XPSR, 0x01000000)  returns 0x00 (0000ms, 0984ms total)
T4830 003:440 JLINK_WriteReg(MSP, 0x20000800)  returns 0x00 (0000ms, 0984ms total)
T4830 003:440 JLINK_WriteReg(PSP, 0x20000800)  returns 0x00 (0000ms, 0984ms total)
T4830 003:440 JLINK_WriteReg(CFBP, 0x00000000)  returns 0x00 (0000ms, 0984ms total)
T4830 003:440 JLINK_SetBPEx(Addr = 0x20000000, Type = 0xFFFFFFF2)  returns 0x00000012 (0000ms, 0984ms total)
T4830 003:440 JLINK_Go() (0002ms, 0986ms total)
T4830 003:442 JLINK_IsHalted()  returns FALSE (0001ms, 0987ms total)
T4830 003:570 JLINK_IsHalted() -- CPU_ReadMem(2 bytes @ 0x20000000)  returns TRUE (0004ms, 0990ms total)
T4830 003:574 JLINK_ReadReg(R15 (PC))  returns 0x20000000 (0000ms, 0986ms total)
